!ATF-13336
!S-PARAMETERS at Vds=2.5V  Id=20mA.   LAST UPDATED 07-22-92

# ghz s ma r 50 

2.0	.96	-51	3.39	127	.044	57	.61	-41
3.0	.88	-75	3.28	106	.060	33	.58	-51
4.0	.86	-96	3.19	86	.074	25	.57	-57
5.0	.79	-117	3.13	66	.093	12	.54	-65
6.0	.69	-142	3.22	46	.114	1	.49	-79
7.0	.60	-178	3.21	21	.132	-18	.42	-97
8.0	.54	141	3.10	-4	.137	-33	.31	-112
9.0	.56	103	2.80	-26	.147	-48	.21	-121
10.0	.56	74	2.60	-48	.150	-63	.09	-145
11.0	.58	44	2.39	-68	.145	-78	.07	89
12.0	.63	20	2.17	-90	.133	-95	.16	43
13.0	.65	3	2.00	-108	.121	-107	.19	21
14.0	.66	-7	1.89	-126	.114	-121	.19	-4
15.0	.70	-19	1.76	-144	.112	-129	.16	-28
16.0	.72	-34	1.66	-175	.110	-142	.14	-32

!FREQ   Fopt    GAMMA OPT       RN/Zo
!GHZ     dB     MAG      ANG      -

2.0	0.7	.80	42	0.43
4.0	0.8	.63	93	0.29
6.0	1.1	.47	138	0.10
8.0	1.2	.40	-153	0.20
10.0	1.3	.47	-96	0.50
12.0	1.4	.52	-45	0.88
14.0	1.6	.57	-2	1.30